#  HZ   S   DB   R     50.00 
! Rohde & Schwarz Vector Network Analyzer 
! Rohde-Schwarz,ZNB4-4Port,1311601024101604,2.80
! Created: UTC 5/10/2019, 10:12:34 AM
! freq[Hz]                db:S11                  ang:S11                 db:S21                  ang:S21                 db:S12                  ang:S12                 db:S22                  ang:S22
 9.000000000000000E3     2.653503913093866E-2   -1.799347139552233E2    -9.800048295722868E1    -8.600643475411182      -9.906585719802726E1    -1.629934426801712E1    -4.138180758023517E1    -1.676173015392014E2
 9.060400499916777E3     2.799514605271305E-2   -1.799458235770377E2    -9.939418630245885E1    -3.185691737358117E1    -9.469331728891156E1    -3.225345003048182E1    -4.063277130526756E1    -1.684677174781990E2
 9.121206357654688E3     2.766796591472909E-2   -1.799388919094027E2    -9.642741708755483E1    -2.446937152294849E1    -9.586730946685830E1    -2.301729869992754E1    -4.060552748601274E1    -1.705740359620176E2
 9.182420293637626E3     2.562494674706432E-2   -1.799419939015260E2    -9.596009948950355E1    -1.839912843160172E1    -1.028577941881646E2    -2.179154422731497E1    -4.025510661349636E1    -1.697529315967602E2
 9.244045046546702E3     2.580287439432418E-2   -1.799399253513341E2    -9.627089358643846E1    -5.156249718269548      -9.662915435908363E1    -2.608120704890021E1    -4.032928289842084E1    -1.698983219777681E2
 9.306083373442772E3     2.476209320123461E-2   -1.799334212716460E2    -1.013470481865799E2    -2.053425215533770E1    -1.012056500596090E2    -2.021603395961206E1    -4.041963399537760E1    -1.713672775433454E2
 9.368538049889790E3     2.389177215702632E-2   -1.799136210657387E2    -1.002832984350221E2    -5.181701427815978E1    -9.561482524769949E1    -1.084597362536688E1    -4.015955436080262E1    -1.701222964650351E2
 9.431411870078979E3     2.435375716729453E-2   -1.799513340113791E2    -1.047027438125727E2     3.546259093263250E1    -9.753266508382039E1     5.067837799145394      -4.025000159033545E1    -1.708365128961184E2
 9.494707646953846E3     2.549764724450237E-2   -1.799290886232027E2    -1.021203945679803E2    -1.329534649749962E-1   -1.005988020195956E2    -6.024618982737056E1    -4.019952185707421E1    -1.721345247984137E2
 9.558428212336032E3     2.745489401317523E-2   -1.799236236436205E2    -9.784274746075121E1    -3.627231240969356E1    -9.875582121443971E1    -2.004825711417240E1    -4.032436452065934E1    -1.715106208764837E2
 9.622576417052002E3     2.315068418591210E-2   -1.799516244962999E2    -9.563893785540472E1    -8.322509506836616      -9.908513282404230E1    -6.114763245163413      -4.000534582503786E1    -1.703977581597610E2
 9.687155131060596E3     2.411175872465900E-2   -1.799403270249196E2    -9.716446112516813E1    -3.354476688054281E1    -9.783063056002463E1    -2.404769694229000E1    -4.000004331063329E1    -1.708048637688999E2
 9.752167243581422E3     2.246236153830063E-2   -1.799493253242208E2    -1.005361938142419E2     1.221681895037460E1    -9.747218681776728E1    -9.520807043512450      -4.010879836744398E1    -1.715477144920823E2
 9.817615663224127E3     2.027357808140461E-2   -1.799554393018487E2    -1.018852377435957E2     1.500487339578375E1    -9.884992139913149E1    -3.857519998659073E1    -4.005767426915980E1    -1.715895962240884E2
 9.883503318118519E3     2.241468926505631E-2   -1.799361367007114E2    -9.786274767116859E1     2.655591260818390E1    -9.838214059060880E1    -3.163883906027576E1    -3.991903338750736E1    -1.720413244367534E2
 9.949833156045574E3     2.088307106409212E-2   -1.799475214385827E2    -9.773214152090040E1    -3.121143678459145E1    -9.773503708381992E1    -6.888373980164317      -3.989255389694093E1    -1.718023346246326E2
 1.001660814456932E4     2.118190187036560E-2   -1.799524410086457E2    -1.082061769055236E2     3.082578061324061E1    -9.507957863804991E1     2.193631390372308      -4.005769537482529E1    -1.705816046464093E2
 1.008383127116959E4     2.123839774078091E-2   -1.799510518054918E2    -1.012129026263129E2     6.128202247048277E-1   -1.021976206099754E2     1.560888419442256E1    -3.997627946890000E1    -1.717526894597260E2
 1.015150554337571E4     1.973932866190088E-2   -1.799554425230914E2    -1.032575555324721E2    -2.542114228534518E1    -9.868319741185667E1    -1.713716134224794E1    -4.005020433397431E1    -1.720660391310051E2
 1.021963398890103E4     2.128012721537308E-2   -1.799466029631087E2    -1.015167023692140E2     1.838227855808168E1    -9.426568450851352E1    -1.850627173997006E1    -4.015712214075454E1    -1.717842014738494E2
 1.028821965577837E4     2.219099624251195E-2   -1.799590567885516E2    -9.765993729704312E1    -3.619392417256921E1    -9.702611755802505E1    -2.071708048143223E1    -4.001508354169160E1    -1.712061176704411E2
 1.035726561249644E4     1.923982273334892E-2   -1.799583119970512E2    -9.406257465688267E1    -2.213828490549284E1    -9.946573191567529E1    -8.599400544188827      -3.998721902680208E1    -1.717262724190564E2
 1.042677494813707E4     1.994410895808014E-2   -1.799532601629643E2    -1.000506614734586E2    -2.852377745255120E1    -9.502156426283797E1     1.684722561898901      -4.022092109407195E1    -1.717028574992091E2
 1.049675077251343E4     1.914520650592477E-2   -1.799553924827957E2    -1.042254739789650E2    -4.144651170694241E1    -9.835952619849542E1    -2.924573531743013      -3.999772389521581E1    -1.708801255976391E2
 1.056719621630917E4     1.879331599957269E-2   -1.799509507867306E2    -1.013845635585766E2     1.931827541148599E1    -9.498435403603047E1    -2.776275855123554E1    -4.014378003168490E1    -1.712543802800064E2
 1.063811443121847E4     2.010892168785482E-2   -1.799646464361485E2    -9.971963022327167E1    -4.129579402364495E1    -9.559445403644021E1    -9.673335574883284      -3.996342206751627E1    -1.715650738511186E2
 1.070950859008708E4     2.051325127898697E-2   -1.799591002485344E2    -1.028689106133902E2    -6.602801858501315      -9.700680168167256E1    -5.495734297335383      -3.984555047145700E1    -1.712241828608311E2
 1.078138188705423E4     1.975057037656488E-2   -1.799562875281665E2    -9.435459873553278E1    -2.492520877429355E1    -9.824062766126130E1    -1.152378550533067E1    -3.987110217713354E1    -1.719956507759977E2
 1.085373753769553E4     1.712802029459016E-2   -1.799621930246570E2    -1.045087743321927E2    -9.653877905812863      -9.635589708028647E1    -1.268490334869450E1    -3.987403887822629E1    -1.720346306329870E2
 1.092657877916690E4     1.966492545068240E-2   -1.799667054263549E2    -9.950146661747594E1     5.886449240308085      -9.530949098585435E1     1.125890623274970E1    -3.985089190915721E1    -1.719692751173937E2
 1.099990887034932E4     1.693454734329995E-2   -1.799766977695428E2    -9.431465598500790E1     6.539803030121282      -9.763009284582151E1     1.181966763889477      -4.005707534348446E1    -1.719341781323983E2
 1.107373109199466E4     1.901961018805823E-2   -1.799632939356068E2    -9.325883650341169E1    -3.587461279965874E1    -9.841469434147660E1    -2.388049277340652E1    -3.996957013413253E1    -1.709342757208213E2
 1.114804874687249E4     1.842229903821899E-2   -1.799765238174270E2    -9.282361857828902E1    -7.580847058737330      -9.604792673626380E1     3.103548787803914      -4.015898277929463E1    -1.714184550309209E2
 1.122286515991779E4     1.761906099437338E-2   -1.799762642304411E2    -9.470186766728307E1     1.258633975787715E1    -1.006219276346085E2    -1.156773320134706E1    -4.006645672849626E1    -1.725062352779543E2
 1.129818367837975E4     1.974067100913189E-2   -1.799706079049613E2    -9.658625681382249E1    -2.011510971013337      -9.604589112528404E1    -6.010935558248320      -4.010162517126788E1    -1.725491984400793E2
 1.137400767197149E4     1.744936543602894E-2   -1.799720501362239E2    -9.635366802782221E1    -3.488646273898000      -9.550960896751849E1     9.254241294079566      -4.002939891044086E1    -1.720626172925297E2
 1.145034053302086E4     1.712691635580124E-2   -1.799800022632508E2    -9.909777316985867E1    -2.207327622231576E1    -9.729665241902185E1    -3.350026846498789E1    -4.001092293086711E1    -1.724361058096895E2
 1.152718567662218E4     1.568185472325642E-2   -1.799685237326451E2    -1.036430254437072E2    -1.670020932164708E1    -9.592438374396991E1    -8.636460979495897      -4.000259591004217E1    -1.720974133844513E2
 1.160454654078901E4     1.704138145646501E-2   -1.799804897309525E2    -9.915577120859005E1    -3.255303878599739E1    -9.978132668983606E1     3.061503405027342E1    -3.996651909253048E1    -1.731694394205039E2
 1.168242658660803E4     1.755224472804323E-2   -1.799739371827637E2    -9.703183749787468E1    -7.579760938820639      -9.578725167713380E1    -3.608739283263589E1    -3.996033803384233E1    -1.716726304039138E2
 1.176082929839383E4     1.673510544024322E-2   -1.799781481584741E2    -9.361602690473170E1    -1.180755606640591E1    -9.904057419460577E1    -9.423440212751757      -4.024920663646712E1    -1.727848331652465E2
 1.183975818384482E4     1.530419076314525E-2   -1.799815028092129E2    -1.023212970383879E2    -1.503708356884343E1    -9.481242063939388E1    -1.586292210303799E1    -4.006330682442594E1    -1.719423603167300E2
 1.191921677420015E4     1.770813605549239E-2   -1.799737838300231E2    -9.933835116869149E1     5.854220539828090      -9.465130844419916E1    -1.737899147537416E1    -3.975671361147285E1    -1.717725050208718E2
 1.199920862439772E4     1.734127174871874E-2   -1.799739253523159E2    -1.002330156793974E2    -1.452768549334897      -1.011200188171203E2    -3.680650424822325E1    -3.998871253666218E1    -1.713019754227449E2
 1.207973731323320E4     1.756220095858888E-2   -1.799749191591072E2    -9.444474141275055E1    -1.300658518432542E1    -9.547580241622073E1    -1.508914961193167E1    -3.996487697847359E1    -1.729853771417731E2
 1.216080644352016E4     1.428300347457841E-2   -1.799924081057306E2    -9.752578221177700E1    -6.906483277924919      -9.886268809241166E1    -2.316608048677143E1    -3.995737809745658E1    -1.714008942542336E2
 1.224241964225125E4     1.493454765826549E-2   -1.799773876994580E2    -1.024765059502812E2    -1.189173561411355E1    -9.613041622879011E1     1.544998706993831E1    -4.000582256922959E1    -1.722829640371948E2
 1.232458056076047E4     1.512351740630140E-2   -1.799827215471707E2    -1.012750729607944E2    -2.294966459217014E1    -9.817319486082452E1    -6.174104447624082      -4.004957094663961E1    -1.715745999733202E2
 1.240729287488653E4     1.517781852004797E-2   -1.799849201420474E2    -9.766957174780347E1    -1.231294899108467E1    -9.642339215969138E1    -1.665961767011185E1    -4.000985004705483E1    -1.713356975500401E2
 1.249056028513731E4     1.415580049327728E-2   -1.799956962794128E2    -9.948612101048290E1    -8.983158861052004      -9.534219346325394E1    -2.220197134372734      -3.993167664091600E1    -1.730961310752112E2
 1.257438651685541E4     1.457335908564692E-2   -1.799900631283325E2    -9.867802253356331E1    -2.290500940863834E1    -9.721819392216106E1    -2.132398600484545E1    -3.988366325690114E1    -1.715364469278981E2
 1.265877532038484E4     1.503083601203778E-2   -1.799965747387873E2    -1.005413237062630E2    -1.568280667719721E1    -9.747349032117083E1    -4.517297632065391      -3.999847614371588E1    -1.729965628680997E2
 1.274373047123878E4     1.284865124099613E-2   -1.799864100760705E2    -9.721420200736733E1    -1.689894516048654E1    -9.701356297428121E1     1.097530893567673E1    -3.995047719220725E1    -1.726597241419017E2
 1.282925577026850E4     1.515153364495398E-2   -1.799887872566972E2    -9.560941373676656E1    -4.418396518361965      -9.584572023824921E1    -6.337095024245946      -4.000790518235000E1    -1.724247950060601E2
 1.291535504383343E4     1.494228857577535E-2   -1.799973770995950E2    -1.015687292290698E2    -2.720606364758075E1    -1.002830035503423E2    -2.692204999394500E1    -3.993759348596826E1    -1.723119939878732E2
 1.300203214397235E4     1.482479605416799E-2   -1.799926697741506E2    -9.444533814633974E1    -2.559873148235432E1    -9.949315935220886E1     1.051682863276651E1    -3.986244830533879E1    -1.726290902029457E2
 1.308929094857567E4     1.444225394780093E-2   -1.799986248088962E2    -9.702538646651279E1    -5.115685484480773E1    -9.975041488201704E1     1.090558998365113E1    -4.009678214741108E1    -1.728955980289631E2
 1.317713536155902E4     1.380882413450413E-2   -1.799878698699569E2    -9.959142345996546E1    -2.233192209406064E1    -9.748411422605543E1    -2.419331725995787      -4.004563848946553E1    -1.724726663663871E2
 1.326556931303782E4     1.474369223448438E-2   -1.799932672173052E2    -9.841417777588383E1    -3.882418137538170      -9.618763072720699E1     5.381168308099235E-1   -4.015433521800002E1    -1.725955986013564E2
 1.335459675950317E4     1.407567654355731E-2   -1.799898476909273E2    -9.879273814331198E1     1.103039225320182E1    -9.885875298477222E1    -6.173091888951626E-1   -4.000075175165718E1    -1.730556730472567E2
 1.344422168399884E4     1.394367876661290E-2   -1.799952181677892E2    -1.000448383569094E2     1.981211685628171E1    -9.707983515650483E1    -1.335490259940965E1    -3.996988372241369E1    -1.720149326216368E2
 1.353444809629945E4     1.319771102792195E-2    1.799973930980259E2    -9.855153608964287E1     1.745924403235997E1    -9.623994056078530E1    -1.650152048433754E1    -3.999254979590912E1    -1.734843791321470E2
 1.362528003308992E4     1.336477743804806E-2    1.799975034712346E2    -1.014546196143888E2     2.336013199682307E1    -9.688736537786470E1     2.305320777778712      -3.991735062909810E1    -1.729295805268074E2
 1.371672155814600E4     1.225880398062446E-2   -1.799953809565954E2    -9.400266012827407E1    -5.255597468757455      -1.014067951483056E2    -2.523853842986760E1    -3.998835906864490E1    -1.731012394848851E2
 1.380877676251614E4     1.361133357145027E-2   -1.799933866024410E2    -9.561024977384712E1    -1.218374288904681E1    -9.596937584452725E1    -1.972458463100585E1    -4.013230290734674E1    -1.738920579879161E2
 1.390144976470449E4     1.377697633478632E-2   -1.799877618011292E2    -9.363780667587787E1    -3.044582675912474E1    -9.510008891685001E1     7.611230930816052      -3.999411950549793E1    -1.721018134963855E2
 1.399474471085517E4     1.238990180696582E-2   -1.799950263429062E2    -9.650405292890893E1    -4.036314677131768      -9.579117430599627E1    -1.075348394178133E1    -4.003806742131821E1    -1.737519123557950E2
 1.408866577493776E4     1.236667344502674E-2    1.799929423494037E2    -9.673685006437701E1     7.491837596349363      -9.925067595892217E1     2.597052513294751E1    -3.995454754181968E1    -1.730596235272438E2
 1.418321715893405E4     1.163643644783911E-2    1.799963413862651E2    -9.939149900310744E1     6.484896221953159      -9.618564759528556E1    -6.140654835031663      -4.007966797685051E1    -1.729748651868909E2
 1.427840309302604E4     1.197149380745294E-2   -1.799954110473870E2    -1.017004750527441E2    -9.662137187281504E-1   -9.977734230162508E1     1.617470351743774E1    -4.011880096721719E1    -1.726683101856572E2
 1.437422783578515E4     1.126801333863141E-2    1.799999766148397E2    -9.568416345822172E1     3.125954183514749      -9.866444839375889E1    -1.853242416362117E1    -4.001251245826249E1    -1.730825091837298E2
 1.447069567436283E4     1.157430241321996E-2   -1.799996848323423E2    -9.906556744104222E1     7.895548391808644      -9.809190204772386E1    -5.866275180116646E-1   -3.999954800126703E1    -1.729143134768379E2
 1.456781092468228E4     1.130355925756164E-2    1.799834911412930E2    -1.015644328987531E2    -8.246008005604150      -9.694845011766302E1     3.958262147863238      -4.010950324375169E1    -1.734649441206008E2
 1.466557793163160E4     1.170494004502817E-2    1.799899085978103E2    -9.521848918008095E1    -2.543296919825461E1    -9.757866998997862E1    -3.572119178424412      -4.012740889809767E1    -1.729299957654040E2
 1.476400106925816E4     1.154979912463412E-2    1.799934304858824E2    -1.021184150943774E2    -4.168812843431198E1    -1.024357910906694E2    -4.496934378893189E1    -4.005781779533653E1    -1.736853862015032E2
 1.486308474096428E4     1.207201802856566E-2    1.799962722156994E2    -1.015006493185046E2    -3.433908894015751E1    -1.001662834093509E2     1.552069783783437      -3.995940831335208E1    -1.732162660584159E2
 1.496283337970424E4     1.195800417096429E-2    1.799917790730029E2    -9.685789942849593E1    -1.671150298430161E1    -1.054855518223513E2    -3.343626893890286E1    -3.996408204950328E1    -1.729649914835153E2
 1.506325144818264E4     1.169184418648557E-2    1.799841968785894E2    -9.804169906216102E1    -2.452756011821955E1    -9.547209473919173E1     1.811005064099653      -3.996876254375567E1    -1.729726085529433E2
 1.516434343905401E4     1.171217547731700E-2    1.799935401938300E2    -9.646163673784507E1    -3.353899515087835E1    -9.625983529850629E1    -9.435263761243924      -4.009010760487112E1    -1.735521279408959E2
 1.526611387512385E4     1.104241101545282E-2    1.799887160726049E2    -9.621645544298956E1    -2.322109047805197E1    -9.441837982766012E1    -2.579240888750847E1    -4.001095060641415E1    -1.733044214138670E2
 1.536856730955096E4     1.073106409931686E-2    1.799864579801315E2    -1.011158505757822E2    -2.465612283835743E1    -9.654749026565342E1     2.954629180193497E-2   -4.000577420306329E1    -1.729721013566862E2
 1.547170832605113E4     1.097180651789671E-2    1.799826760134193E2    -9.527619340204115E1    -7.465816041124968      -9.627058608360530E1    -1.069286979802992E1    -4.003290126586131E1    -1.738368840037420E2
 1.557554153910225E4     1.024181604899120E-2    1.799810610397825E2    -9.646756015287636E1    -1.141767628559087E1    -9.501620507081512E1    -4.890621326193814      -4.001454596362471E1    -1.731867048378230E2
 1.568007159415073E4     1.099758488373414E-2    1.799854162708238E2    -9.774162689576600E1    -1.033183058053997E1    -9.630074580668830E1     1.526909851943219      -4.008776571589940E1    -1.740878074573787E2
 1.578530316781935E4     1.107554344210411E-2    1.799786879907442E2    -9.721596637745509E1    -8.451498610902325      -9.631024771551147E1    -2.427417408009184E1    -4.004767358923165E1    -1.743069654713699E2
 1.589124096811648E4     1.081357131954445E-2    1.799842871830266E2    -9.980207714595397E1     1.427240633738150E1    -9.624409076696176E1    -1.376642701449437E1    -4.006883570061522E1    -1.739642013254609E2
 1.599788973464673E4     1.064814240686750E-2    1.799923886280252E2    -9.822525147463138E1     2.463169946826259E1    -1.003540397242334E2     7.874207701950018      -3.999770604988542E1    -1.738177570023800E2
 1.610525423882297E4     1.051132221894893E-2    1.799768728318402E2    -9.895700711432937E1     3.844776657539273      -9.585360296094140E1     1.480038751236304E1    -3.996371379453166E1    -1.731785942114998E2
 1.621333928407982E4     9.566054264810107E-3    1.799871384879838E2    -9.641423951093088E1    -1.514935766514793E1    -9.970178000894818E1    -5.149270338525429      -3.992995455300748E1    -1.737294795341751E2
 1.632214970608857E4     1.043967356120939E-2    1.799778938359970E2    -9.913144896204061E1    -3.045305187940897      -9.598252904945041E1    -2.171262660285244E1    -3.996139294180865E1    -1.736184461423864E2
 1.643169037297349E4     9.751081612410183E-3    1.799791234247562E2    -9.902541043784153E1    -1.314418755695586E1    -9.807487360368837E1    -1.465620918366075E1    -4.013127188064342E1    -1.736061476423135E2
 1.654196618552964E4     1.004802762510018E-2    1.799794857168447E2    -1.014158049515081E2    -9.118638222649633      -1.040504298209280E2    -2.650186564860177E1    -3.998883844429476E1    -1.737537134943327E2
