!Keysight Technologies,E5080A,MY55201161,A.12.60.03
!Date: Monday, January 06, 2020 21:17:27
!Correction: S11(Full 2 Port(1,2)) 
!S21(Full 2 Port(1,2)) 
!S12(Full 2 Port(1,2)) 
!S22(Full 2 Port(1,2)) 
!S2P File: Measurements: S11, S21, S12, S22:Log Frequency Sweep
# Hz S  dB   R 50
9000 -34.630474 178.76541 -118.35773 -13.456294 -121.1244 -4.225009 0.014027757 -179.96474
9060.4004999168 -34.638733 178.86455 -118.71836 -4.4205527 -118.45286 -1.0342757 0.014078457 -179.96426
9121.2063576547 -34.644966 178.951 -118.22266 -3.9260325 -119.3226 -7.9659867 0.014046399 -179.96439
9182.4202936376 -34.637741 178.97925 -118.96647 -8.3527479 -118.1252 -3.5653715 0.014070163 -179.96452
9244.0450465467 -34.631596 178.98978 -118.42066 3.5310268 -119.00919 4.2856579 0.014082596 -179.96422
9306.0833734428 -34.632641 178.99384 -118.22462 -3.7095988 -117.81348 1.6597344 0.01411878 -179.96419
9368.5380498898 -34.63776 178.99623 -118.37759 1.6145411 -118.42444 -2.7775536 0.014059877 -179.96396
9431.411870079 -34.628326 179.08661 -119.30663 -11.777302 -118.71843 -7.3993387 0.014083686 -179.96362
9494.7076469538 -34.630322 179.05737 -118.57497 -10.155473 -117.99843 -1.1063268 0.014050628 -179.96338
9558.428212336 -34.629375 179.08984 -119.35367 -0.10140245 -119.56676 14.433614 0.014120953 -179.96309
9622.576417052 -34.627808 179.11366 -119.44456 -9.1010017 -119.01394 -2.9880667 0.014093047 -179.96304
9687.1551310606 -34.629128 179.12254 -119.24096 -6.3752184 -118.99847 1.4992592 0.014107557 -179.96266
9752.1672435814 -34.62344 179.15837 -118.18399 -4.819684 -118.49072 -1.6911311 0.014113741 -179.96284
9817.6156632241 -34.62793 179.18726 -120.20964 -9.8933344 -119.15044 -11.368598 0.014147891 -179.96248
9883.5033181185 -34.622242 179.17546 -119.12626 -3.3476291 -120.6188 1.6532452 0.014194416 -179.96242
9949.8331560456 -34.622421 179.15941 -118.97583 -0.24780917 -119.64757 2.5215998 0.014141739 -179.96196
10016.608144569 -34.621185 179.20769 -117.26152 0.29984015 -119.19005 1.6564529 0.014115925 -179.96167
10083.83127117 -34.621544 179.22275 -117.23366 -3.0588462 -119.573 4.663579 0.014141763 -179.96175
10151.505543376 -34.620766 179.21497 -118.80928 -5.8774962 -118.95402 -4.7231216 0.014191404 -179.96153
10219.633988901 -34.621117 179.20328 -119.29381 -3.5262907 -119.95471 -1.3951782 0.014133536 -179.9613
10288.219655778 -34.613651 179.22145 -118.86859 -9.9594316 -117.68352 -11.536668 0.014116983 -179.96144
10357.265612496 -34.620819 179.26152 -119.63378 -4.2348251 -119.77122 3.7718098 0.014175938 -179.96114
10426.774948137 -34.625771 179.26051 -117.77928 -3.9053502 -118.42698 -7.8450513 0.014162501 -179.96112
10496.750772513 -34.627232 179.27399 -118.52258 -4.6799393 -119.19933 4.2713327 0.014166693 -179.96057
10567.196216309 -34.621216 179.28067 -120.08035 -2.4935486 -118.64632 1.1545832 0.014163606 -179.96043
10638.114431218 -34.624741 179.28052 -118.91105 -1.05099 -118.01167 -3.7821989 0.014194627 -179.96036
10709.508590087 -34.622818 179.29289 -117.96062 -12.028759 -118.51188 -2.8994687 0.014193632 -179.95998
10781.381887054 -34.628139 179.31102 -118.43177 -5.1751652 -119.0835 -6.0624208 0.014226751 -179.95961
10853.737537696 -34.621128 179.28139 -118.87548 -2.6542892 -119.25092 -11.688282 0.014166809 -179.95947
10926.578779167 -34.614815 179.27177 -118.66752 -7.2455349 -118.20026 -4.7159581 0.014229893 -179.95923
10999.908870349 -34.612865 179.31642 -118.22338 -2.917454 -117.7922 -0.84142566 0.014191634 -179.95934
11073.731091995 -34.618065 179.30727 -118.81688 -2.5202222 -119.74597 -5.8527393 0.014126524 -179.95918
11148.048746872 -34.615562 179.33508 -118.27638 -4.4805026 -119.66434 -9.167881 0.014224777 -179.95876
11222.865159918 -34.619286 179.3306 -118.07051 0.36545703 -119.59415 -7.9835172 0.014168942 -179.95886
11298.18367838 -34.620968 179.3382 -119.62169 -5.1185822 -120.01285 -7.0278625 0.014176214 -179.95854
11374.007671971 -34.624306 179.38411 -118.94547 -6.965498 -120.30616 3.4712133 0.014220763 -179.95766
11450.340533021 -34.621227 179.35919 -118.31617 -2.9220622 -118.98838 -16.17816 0.014236235 -179.95796
11527.185676622 -34.623402 179.40642 -119.63854 -9.7867422 -119.33912 -6.0981097 0.014187686 -179.95763
11604.546540789 -34.623859 179.38321 -119.09695 0.87720054 -120.58834 -6.8350368 0.014234223 -179.95747
11682.426586608 -34.624779 179.38255 -118.72071 -12.804665 -118.83618 -1.3649797 0.014203212 -179.95746
11760.829298394 -34.620182 179.42479 -119.23785 -11.53721 -118.40491 0.1434543 0.014164004 -179.9568
11839.758183845 -34.616341 179.39491 -117.83443 -2.1229539 -118.65874 0.95561028 0.014213603 -179.95699
11919.2167742 -34.619122 179.40723 -119.10234 -2.7261708 -119.86213 -5.9439311 0.014240541 -179.95645
11999.208624398 -34.622448 179.40994 -118.88425 -7.1095243 -118.78267 -5.8624067 0.014239515 -179.95638
12079.737313233 -34.617809 179.38115 -118.45063 -8.5468731 -119.33536 -7.5107589 0.014212681 -179.95601
12160.80644352 -34.618889 179.41838 -118.48892 -0.83231235 -119.81252 5.1017127 0.014211652 -179.95598
12242.419642251 -34.613121 179.4492 -119.50108 -5.9405842 -118.04866 0.68686861 0.01424997 -179.95538
12324.58056076 -34.611362 179.43234 -118.86519 -11.958094 -119.37244 -2.6876764 0.014226181 -179.95549
12407.292874887 -34.613621 179.43542 -118.28519 -7.7409797 -119.05701 -2.7679911 0.014243771 -179.95534
12490.560285137 -34.612808 179.43181 -117.50771 4.8791509 -120.14787 -3.2824299 0.014234488 -179.95517
12574.386516855 -34.617298 179.48083 -118.87048 -10.76722 -119.05023 -5.2262287 0.014246936 -179.95482
12658.775320385 -34.616142 179.4487 -119.61767 -5.8951349 -118.06264 -3.6319113 0.014276921 -179.95476
12743.730471239 -34.608883 179.45969 -118.31559 0.0062252074 -119.86152 2.4180086 0.014299716 -179.95432
12829.255770268 -34.610016 179.45712 -117.62468 -0.64109737 -119.62735 -4.4134116 0.014229425 -179.95428
12915.355043833 -34.614803 179.46028 -118.85983 -0.33587211 -120.08092 -1.0897926 0.014327697 -179.95374
13002.032143972 -34.613308 179.47371 -118.77584 -7.7741656 -119.73225 -11.474337 0.014295708 -179.95328
13089.290948576 -34.618271 179.45425 -118.60816 -4.0254102 -118.4408 7.624928 0.014279176 -179.95322
13177.135361559 -34.611122 179.46826 -119.02599 -4.436533 -118.77273 -1.6747433 0.01428852 -179.9529
13265.569313038 -34.619339 179.47032 -119.17653 -0.1150967 -120.09525 -1.9734253 0.014347444 -179.95288
13354.596759503 -34.618649 179.5085 -120.06428 0.46414652 -119.46236 4.3542967 0.01426583 -179.95248
13444.221683999 -34.621914 179.50491 -119.13922 -4.3219876 -119.45399 -5.2407899 0.014283458 -179.95204
13534.448096299 -34.625099 179.48912 -118.31427 -3.7996745 -120.02979 -9.1485415 0.014320724 -179.95164
13625.28003309 -34.623775 179.52423 -118.64037 -15.078731 -117.38003 -5.5912113 0.014291767 -179.95174
13716.721558146 -34.6236 179.50529 -118.21104 -11.626144 -119.94099 -0.17390327 0.014286669 -179.95119
13808.776762516 -34.622623 179.51312 -118.80408 -1.2769074 -119.75292 -3.8548195 0.014303199 -179.95126
13901.449764704 -34.625992 179.53557 -120.01284 -13.4388 -119.50457 -5.913836 0.014297021 -179.95108
13994.744710855 -34.624187 179.52376 -119.55057 -0.83350003 -119.86142 1.6086187 0.014298134 -179.95045
14088.665774938 -34.623051 179.55057 -119.3736 -6.7560649 -118.23316 3.7224541 0.014288844 -179.95036
14183.217158934 -34.618835 179.50336 -119.21576 0.29119781 -119.90796 -17.042862 0.014352969 -179.9501
14278.403093026 -34.620869 179.54199 -120.28636 -21.322329 -119.65873 -3.8956501 0.014388147 -179.94987
14374.227835785 -34.61478 179.5381 -119.76392 -5.8030787 -120.18741 -12.761706 0.014316899 -179.94928
14470.695674363 -34.617435 179.54305 -119.35326 -8.5048666 -119.00605 -6.0359373 0.014325207 -179.94899
14567.810924682 -34.612305 179.53485 -118.23511 -7.38729 -118.94793 -9.4594183 0.014314861 -179.94905
14665.577931632 -34.616745 179.55521 -118.41375 -12.727788 -117.77007 -1.7302445 0.014275628 -179.9487
14764.001069258 -34.619057 179.54253 -118.19797 -3.1014676 -117.91014 -8.5721102 0.014248815 -179.94823
14863.084740964 -34.617905 179.56142 -119.82491 -8.4373379 -119.27903 -6.1152472 0.014311881 -179.94817
14962.833379704 -34.619514 179.55623 -119.32137 -8.6934252 -118.99056 -11.08158 0.014317113 -179.94771
15063.251448183 -34.621456 179.57974 -119.39812 -1.2096632 -120.27344 -10.311532 0.014321311 -179.94725
15164.343439054 -34.625778 179.58119 -117.95885 -5.4794683 -119.15942 -6.5011606 0.014326487 -179.94719
15266.113875124 -34.631588 179.60291 -119.02726 -1.8864398 -119.22277 -6.8385687 0.014301678 -179.94719
15368.567309551 -34.635059 179.58931 -118.1487 -5.501513 -118.11716 -2.9895422 0.014322455 -179.94647
15471.708326051 -34.633263 179.58572 -119.30726 -6.088809 -117.90173 -7.2631702 0.014355561 -179.94627
15575.541539102 -34.635201 179.60039 -119.58806 -5.5400209 -118.73705 -0.35589379 0.014314238 -179.94609
15680.071594151 -34.632778 179.60513 -118.88899 -7.1435084 -119.03875 -4.177084 0.014285384 -179.94547
15785.303167819 -34.626102 179.60004 -118.2824 -11.305472 -118.96255 -8.1696167 0.014344313 -179.94542
15891.240968116 -34.622116 179.61299 -118.13268 3.0097046 -120.54388 -5.8617916 0.014344392 -179.94487
15997.889734647 -34.621078 179.60922 -118.95371 -8.6450968 -118.99773 -1.6350664 0.014292753 -179.94455
16105.254238823 -34.625111 179.60579 -119.15942 -7.2849269 -119.49835 -8.3817186 0.014297969 -179.94423
16213.33928408 -34.620716 179.59735 -119.49118 -3.9299753 -120.48489 -7.6474419 0.014309432 -179.9436
16322.149706089 -34.622463 179.62279 -118.30791 -4.4211969 -118.96155 -7.2583804 0.014307351 -179.9437
16431.690372973 -34.617714 179.63582 -119.89777 -8.1869717 -119.6687 3.5678144 0.014343598 -179.94325
16541.96618553 -34.621201 179.62039 -119.32879 -10.11339 -119.3178 -12.952194 0.014328141 -179.94293
16652.982077442 -34.617592 179.62634 -119.34785 -0.40840977 -120.04475 -3.8011663 0.014384023 -179.94252
16764.743015507 -34.620296 179.62271 -119.46791 0.14765571 -119.35068 -4.7888584 0.014317879 -179.94243
16877.253999853 -34.627419 179.65277 -119.24129 -1.4528285 -119.4501 0.15687932 0.014322126 -179.94171
16990.520064165 -34.619904 179.62697 -119.0778 -8.720933 -119.26369 -9.3907938 0.014342804 -179.9417
17104.546275912 -34.624615 179.62727 -118.96809 -2.2339735 -117.40746 -1.2740049 0.014319107 -179.94118
17219.337736569 -34.630486 179.64867 -119.69279 -2.4309323 -119.8111 -6.1827936 0.01438113 -179.94118
17334.89958185 -34.632603 179.63969 -119.32461 -5.7928638 -117.01246 -1.3599144 0.014384325 -179.94058
17451.236981933 -34.622791 179.61858 -118.62753 -8.202652 -119.39704 -7.3900566 0.014332727 -179.94002
17568.355141697 -34.628334 179.66013 -118.31785 -5.4872069 -120.78197 -1.6821578 0.014375153 -179.93976
17686.25930095 -34.633667 179.6436 -119.39542 -6.2760267 -118.19428 -9.8569355 0.014366882 -179.93976
17804.954734665 -34.624077 179.63995 -119.59734 -7.1138558 -118.71956 1.5152086 0.014351431 -179.93941
17924.446753217 -34.630085 179.65755 -119.80939 -2.9171064 -119.78678 -4.0631094 0.014378437 -179.93861
18044.74070262 -34.627636 179.64455 -120.13097 -9.8249378 -119.6162 -12.691841 0.01440638 -179.93842
18165.841964765 -34.624172 179.63617 -119.54837 -9.2301817 -118.64424 2.3980417 0.014355797 -179.93799
18287.755957663 -34.625267 179.66652 -118.63998 1.5493538 -120.25097 -4.8146448 0.014411676 -179.93764
18410.488135685 -34.626167 179.63513 -119.36987 -7.2339506 -119.4042 -9.2690201 0.014426218 -179.93721
18534.043989808 -34.627056 179.66473 -119.44624 -7.1470447 -118.62936 -12.63048 0.014428364 -179.93675
18658.42904786 -34.629482 179.66095 -119.30016 -0.028621212 -118.85473 -4.9704852 0.014395305 -179.93663
18783.648874766 -34.624847 179.66434 -119.66835 -4.5875378 -119.89005 -3.191797 0.014407801 -179.93608
18909.709072799 -34.629768 179.66814 -119.84314 -3.9243007 -118.08353 2.9678929 0.014379921 -179.9359
19036.615281829 -34.631344 179.65207 -119.28242 3.3572752 -120.63594 -10.509462 0.014390338 -179.93542
19164.373179579 -34.628635 179.67177 -119.53616 -7.9754577 -117.92062 -8.3243303 0.014404901 -179.93491
19292.988481872 -34.642109 179.66835 -119.51496 -4.8176422 -119.55967 2.8831766 0.014445252 -179.93469
19422.466942894 -34.63097 179.66045 -119.37801 -7.683073 -119.6918 0.28996277 0.014416375 -179.9343
19552.814355446 -34.628342 179.67184 -119.21851 -8.3830833 -118.88248 -12.837112 0.014407202 -179.93356
19684.036551207 -34.633987 179.66156 -120.02604 -20.408684 -120.51424 -3.3849993 0.014394872 -179.93314
19816.139400993 -34.631149 179.64792 -119.6677 -7.3570061 -118.58981 -9.8859606 0.014412525 -179.93269
19949.128815019 -34.626591 179.68921 -118.42415 0.67828256 -119.61602 1.8486902 0.014451887 -179.93224
20083.010743167 -34.628109 179.67041 -119.02011 -11.088391 -120.31207 -4.1929493 0.014418874 -179.93187
20217.791175247 -34.630512 179.69617 -118.78408 2.5142348 -118.47697 -5.6595125 0.014425121 -179.93163
20353.476141269 -34.626595 179.69376 -118.13776 -3.5968335 -117.99747 -2.1743066 0.014489342 -179.93089
20490.071711711 -34.633953 179.70465 -119.16873 -9.8901768 -119.13182 -4.7756438 0.014474906 -179.93071
20627.583997791 -34.635555 179.71823 -119.7936 -9.2040176 -119.08379 6.7603612 0.014428441 -179.93042
20766.01915174 -34.62801 179.73019 -118.46363 -5.3072119 -120.23378 -0.85195243 0.014482268 -179.93002
20905.383367079 -34.62944 179.71246 -120.35871 -7.2388401 -118.56881 -1.4037896 0.014435868 -179.9294
21045.682878892 -34.634979 179.7477 -119.57935 -7.0629377 -118.79286 -11.592654 0.014415258 -179.92906
21186.923964112 -34.629189 179.72932 -120.0545 -7.1492705 -118.7622 -2.6838081 0.014508337 -179.9288
21329.112941793 -34.628448 179.74101 -119.11665 -5.7817087 -118.93344 -9.8927374 0.014424742 -179.9281
21472.2561734 -34.637756 179.73109 -119.94723 -8.3265476 -120.31535 5.023479 0.014454742 -179.92798
21616.360063091 -34.635155 179.75984 -118.2808 -3.3919401 -119.65809 -6.6362677 0.014484871 -179.92719
21761.431058001 -34.642792 179.76331 -119.11007 -3.0432374 -118.88086 -11.518757 0.014457983 -179.92725
21907.475648535 -34.634045 179.75752 -119.07275 0.73333722 -118.68888 -8.4874897 0.014459204 -179.92628
22054.500368656 -34.637405 179.7549 -120.3395 -4.6820192 -119.45763 -8.1363878 0.014431364 -179.92592
22202.511796176 -34.638981 179.75871 -118.37663 -3.7213316 -118.96316 -3.3720617 0.014519349 -179.92531
22351.516553053 -34.644302 179.78156 -119.43941 -7.7618074 -120.67151 -2.2332785 0.014475971 -179.92513
22501.521305687 -34.636711 179.79536 -119.32804 -1.5240947 -119.69386 -3.3879695 0.0145133 -179.92455
22652.532765215 -34.632481 179.78133 -119.62973 -8.6773853 -118.87841 -7.7179475 0.014461738 -179.92392
22804.557687815 -34.641102 179.80795 -119.8668 -1.7870063 -119.38887 -5.1570606 0.014502097 -179.92371
22957.602875007 -34.634583 179.79195 -118.63406 -4.7451296 -120.44043 -6.5492783 0.014469113 -179.92323
23111.675173956 -34.631618 179.82515 -118.76519 0.44762883 -121.74796 -6.7214379 0.01450021 -179.92281
23266.78147778 -34.637814 179.82712 -119.86824 -10.800283 -119.56977 -3.5829799 0.014537581 -179.92204
23422.928725859 -34.639343 179.84764 -119.70379 -5.9552388 -120.10062 0.094891004 0.014544901 -179.92165
23580.123904144 -34.63834 179.8261 -119.78917 -8.540102 -119.54012 -1.4872576 0.014494341 -179.9212
23738.374045467 -34.640541 179.85252 -120.25204 -4.9367509 -119.44391 -14.51825 0.014553383 -179.92062
23897.686229862 -34.636768 179.8448 -118.7085 1.5132308 -119.21086 -11.188681 0.014521471 -179.92
24058.067584878 -34.642513 179.85524 -119.38409 -11.367898 -118.70243 -7.7054243 0.014527756 -179.9196
24219.525285895 -34.643185 179.84834 -119.91433 -5.6634316 -117.83826 -7.4108124 0.014539184 -179.91934
24382.066556452 -34.646923 179.85225 -119.26354 -2.1110206 -119.58709 -20.59655 0.014577555 -179.91876
24545.698668565 -34.642982 179.86412 -119.33119 -3.7856555 -120.90864 -4.8813367 0.014560046 -179.91847
24710.428943053 -34.647331 179.87286 -119.64601 -2.3837845 -119.39839 -8.8684502 0.014576711 -179.91788
24876.264749866 -34.64447 179.87433 -119.24828 -3.3063257 -120.68242 5.288363 0.014589237 -179.91733
25043.213508416 -34.645119 179.91307 -118.78975 -8.5486908 -121.10689 0.030278813 0.014520181 -179.91641
25211.282687908 -34.650589 179.89507 -118.94579 0.70391804 -119.63702 -10.725508 0.014552304 -179.91605
25380.479807674 -34.649712 179.89151 -120.51633 -8.1600924 -120.11185 -10.950153 0.014573077 -179.91562
25550.812437509 -34.649849 179.90767 -118.77917 -12.972165 -119.57223 -3.9024696 0.014577281 -179.9153
25722.28819801 -34.652687 179.92479 -119.0269 -3.7484903 -121.79813 -4.4114685 0.014575403 -179.91446
25894.914760917 -34.650959 179.90106 -119.35896 -7.144033 -120.77288 -6.1563249 0.01454246 -179.91386
26068.699849457 -34.648563 179.93375 -119.15313 -8.5965748 -118.30199 -5.0558372 0.014565325 -179.91331
26243.651238689 -34.648594 179.91658 -120.24826 -11.359977 -120.26675 -7.674726 0.014626361 -179.91312
26419.776755851 -34.647823 179.9579 -118.89225 0.76852822 -118.80524 -5.7894411 0.014596547 -179.9124
26597.084280711 -34.649784 179.9369 -119.79274 -10.761023 -118.74362 -3.7699127 0.014578136 -179.91158
26775.58174592 -34.650993 179.96388 -120.73663 -7.1705871 -120.17963 -3.0399325 0.014633057 -179.911
26955.277137367 -34.651409 179.95166 -119.42583 -8.0724287 -120.10555 -0.57726485 0.014603115 -179.91084
27136.178494532 -34.655407 179.95082 -119.67286 -4.8043041 -119.13513 -8.2232285 0.014587742 -179.91028
27318.293910855 -34.643093 179.9631 -119.3932 -5.429245 -118.73087 -5.5566859 0.014639593 -179.90959
27501.631534087 -34.646713 179.96469 -119.4883 1.8759493 -120.33242 -2.0373797 0.014577696 -179.90907
27686.199566663 -34.648876 179.95827 -118.95503 -4.4317737 -120.14015 -8.6578178 0.014624424 -179.9082
27872.006266066 -34.651287 179.97131 -118.99817 0.84857404 -121.64983 -4.4602542 0.014623472 -179.90785
28059.059945194 -34.64991 179.98836 -119.37282 -2.0072992 -118.98353 -3.1419349 0.014599846 -179.90724
28247.368972736 -34.6511 -179.99471 -118.91269 -10.899817 -120.15904 -0.21991928 0.014643501 -179.90627
28436.941773546 -34.642109 179.98409 -119.29482 -10.249065 -120.2696 -7.5103755 0.014632179 -179.90608
28627.786829016 -34.648212 -179.98744 -120.28377 -9.5946293 -120.31116 -0.59176749 0.014638487 -179.90565
28819.912677458 -34.648289 -179.99886 -119.78127 -4.5314393 -119.49059 -8.2483683 0.014669707 -179.90482
29013.327914489 -34.653183 -179.98044 -119.8223 -2.2670071 -118.84032 2.6626313 0.014655382 -179.90424
29208.04119341 -34.655792 -179.99352 -120.1638 -4.571547 -120.66418 -7.8536854 0.014634869 -179.90361
29404.061225595 -34.651772 -179.9894 -120.27644 0.371535 -120.76164 4.3998828 0.01468468 -179.90285
29601.396780885 -34.659851 -179.98746 -120.47749 -2.7367454 -119.8423 -13.686264 0.014640308 -179.90256
29800.056687974 -34.65799 -179.97661 -119.83172 -6.069479 -119.34639 -4.1579003 0.01468907 -179.90186
30000.049834808 -34.655277 -179.9583 -120.12828 -3.7379372 -120.25848 -17.855488 0.01465722 -179.90112
30201.38516898 -34.655342 -179.9874 -120.122 -3.0741661 -120.0983 -1.8492718 0.014686276 -179.90068
30404.071698134 -34.656841 -179.96115 -120.75746 -8.9441347 -120.37079 -13.504918 0.014726835 -179.89975
30608.118490364 -34.655304 -179.93977 -119.39413 -11.804186 -118.38086 -1.7910976 0.014711454 -179.89929
30813.534674623 -34.655701 -179.96193 -120.36545 -9.8765154 -119.75244 2.9588234 0.014718845 -179.8987
31020.329441129 -34.651268 -179.94524 -120.39807 -13.52519 -120.62238 -12.69978 0.014676628 -179.8981
31228.512041776 -34.657127 -179.92186 -119.6186 -1.4959882 -120.76523 4.8282404 0.014713096 -179.89703
31438.091790552 -34.661064 -179.9261 -120.14664 -2.997057 -121.19836 8.5641508 0.014689493 -179.89641
31649.078063949 -34.655144 -179.91573 -119.97308 -9.6980381 -121.01349 -0.47534734 0.014725807 -179.89592
31861.48030139 -34.646763 -179.91154 -119.60686 -8.8934574 -119.17772 -11.214549 0.014774579 -179.89523
32075.308005645 -34.658981 -179.90604 -120.03815 -14.068717 -119.52386 -9.9349003 0.014743713 -179.89471
