!Keysight Technologies,E5080A,MY55201161,A.12.60.03
!Date: Thursday, December 19, 2019 21:14:24
!Correction: S11(Full 3 Port(1,2,3)) 
!S12(Full 3 Port(1,2,3)) 
!S13(Full 3 Port(1,2,3)) 
!S21(Full 3 Port(1,2,3)) 
!S22(Full 3 Port(1,2,3)) 
!S23(Full 3 Port(1,2,3)) 
!S31(Full 3 Port(1,2,3)) 
!S32(Full 3 Port(1,2,3)) 
!S33(Full 3 Port(1,2,3)) 
!S3P File: Measurements: <S11,S12,S13>,
!<S21,S22,S23>,
!<S31,S32,S33>:Log Frequency Sweep
# Hz S  dB   R 50
9000 -37.809025 -1.5921354 -99.471054 0.72668302 -99.936447 178.08775
-99.884491 -1.8204757 -71.026527 93.50885 -0.0017145529 -0.024908425
-99.715073 179.85352 -0.0027097808 -0.026125524 -73.064011 142.42966
9049.3223765327 -37.815613 -1.5626152 -99.876343 -0.026617127 -99.467934 -179.60004
-99.740067 -4.0331106 -69.247055 83.941513 -0.0022627041 -0.020243242
-99.390335 177.39401 -0.0034351391 -0.021443581 -72.158226 128.67072
9098.9150527129 -37.818642 -1.5275663 -99.533386 -1.9417788 -99.829666 179.93271
-100.25109 -1.1424944 -68.119408 80.615906 -0.0028351382 -0.016398028
-99.911438 179.11621 -0.0040967506 -0.017631974 -71.162773 107.60512
9148.7795098539 -37.81229 -1.5744358 -99.679787 -1.9822135 -100.58202 179.05595
-99.217827 -5.1466279 -67.479393 73.063911 -0.0034531001 -0.013933775
-99.679344 179.43141 -0.0047282916 -0.014827599 -69.767113 103.16472
9198.9172373873 -37.803543 -1.567322 -99.690178 1.8919818 -99.11335 -179.93839
-100.1775 1.5113035 -66.342812 69.903175 -0.0039410694 -0.011888625
-99.492279 177.02995 -0.0053873295 -0.011517907 -69.68811 97.724648
9249.3297329068 -37.795467 -1.5181173 -99.512917 -3.5432987 -100.39079 175.20238
-99.854683 -1.2846148 -65.901901 67.586693 -0.0045652948 -0.0094805351
-99.106262 177.18518 -0.0059013059 -0.0091454601 -69.074783 89.401695
9300.0185022137 -37.803101 -1.5220368 -100.15926 0.079795301 -99.59037 -179.54526
-99.267464 -2.6819346 -65.463692 64.917694 -0.0050678058 -0.0074938564
-100.00982 179.4146 -0.0064712372 -0.0075962818 -68.179092 83.142235
9350.9850593612 -37.801777 -1.5062848 -99.460045 -3.3914306 -99.334862 179.03864
-99.916298 -1.7204275 -64.891937 62.282536 -0.0055206073 -0.0051436294
-99.346001 175.63165 -0.0070065022 -0.0048045232 -67.438698 82.956001
9402.2309267001 -37.797813 -1.5012548 -99.538353 -1.9377415 -99.519386 -179.16573
-99.605843 -3.6890266 -64.490685 62.54752 -0.0059625297 -0.0038150414
-99.821487 179.284 -0.007447985 -0.0029881399 -67.028076 75.598907
9453.7576349239 -37.810379 -1.4521999 -99.874039 -2.5117815 -100.04525 -179.77946
-99.933838 -1.4078679 -64.241119 61.967075 -0.0063806386 -0.0022995996
-99.583961 178.68443 -0.007828855 -0.00072938495 -66.467728 72.57003
9505.5667231149 -37.810123 -1.4531394 -99.964226 -1.023559 -99.804718 177.99898
-100.02532 -2.5399609 -63.765278 57.458565 -0.0066656051 -0.00034161157
-99.120064 179.51944 -0.0081485817 0.000493909 -66.24823 73.467857
9557.6597387899 -37.804619 -1.4374417 -99.602837 -4.7401853 -99.728912 178.86826
-99.849747 -0.29052138 -63.333336 56.095875 -0.0068417625 0.0017639589
-99.325996 176.99797 -0.0086061573 0.0030268405 -65.582718 70.884964
9610.0382379464 -37.804157 -1.475598 -99.900421 -1.9637146 -99.734528 179.77031
-99.9189 -0.94395113 -63.062206 56.365189 -0.0072034136 0.0031660888
-99.553955 176.22095 -0.0088445405 0.0038360471 -65.437897 68.087509
9662.7037851093 -37.815243 -1.4981346 -99.402222 -0.44258356 -99.649216 179.77202
-99.700806 -2.3826075 -62.836552 54.730953 -0.0073847608 0.003922747
-99.266121 178.30559 -0.0092404773 0.0049088798 -65.119354 65.231567
9715.6579533774 -37.813416 -1.4036109 -99.805283 -0.50732738 -99.602135 179.18947
-99.8871 -3.2042217 -62.684669 52.688774 -0.007557305 0.0043506832
-99.546516 177.6871 -0.009543133 0.0062490152 -64.788887 63.244446
9768.9023244707 -37.809349 -1.427804 -99.21991 1.1874312 -99.818336 -179.82097
-99.276161 -3.3960464 -62.649235 52.62183 -0.0078847669 0.0063147326
-99.225296 179.37257 -0.0096560996 0.007395905 -64.369431 62.450859
9822.4384887773 -37.814651 -1.3875588 -99.774185 -1.7700318 -99.225166 -179.89346
-100.097 -2.5298967 -62.292107 51.845493 -0.0080567971 0.0068890215
-99.523643 -177.38155 -0.0099629089 0.008657366 -64.671371 62.888462
9876.268045401 -37.812477 -1.3721117 -99.851273 -3.21328 -99.690666 -179.69786
-99.803429 -4.6577544 -62.068451 51.440105 -0.0081837494 0.0073159421
-99.567436 -177.98453 -0.01013134 0.0096124019 -64.366257 60.459648
9930.3926022092 -37.820015 -1.3641313 -100.09756 -2.9674008 -99.713211 178.71225
-99.703041 -2.7557652 -62.117626 51.146633 -0.0083107017 0.0077782548
-99.166855 175.80591 -0.010272313 0.010078677 -64.289162 58.85688
9984.8137758807 -37.806492 -1.3414938 -99.851685 -1.1214895 -99.477455 179.69208
-99.445206 2.3253074 -61.926071 49.269798 -0.0085920589 0.0094480626
-99.496391 173.70396 -0.010169671 0.010557232 -64.128769 60.845695
10039.533191954 -37.794418 -1.3713759 -99.180023 -0.76803041 -99.3218 178.38054
-100.28719 -1.3305079 -61.935917 50.502827 -0.0087102018 0.010023767
-99.779129 173.6947 -0.010306486 0.011364232 -64.053986 59.998589
10094.552484877 -37.795483 -1.3472669 -99.636993 -3.696728 -99.553665 177.66367
-99.953606 -4.7297702 -61.958076 49.101795 -0.0088133262 0.01025163
-99.814781 176.39049 -0.010356239 0.011604152 -64.054962 59.629333
10149.873298054 -37.80003 -1.3821257 -99.494514 -1.7316629 -99.518028 177.1001
-99.752014 -3.5423269 -61.843552 49.736599 -0.0087760258 0.0097422935
-99.255547 178.14923 -0.010349496 0.011760448 -64.217606 57.848152
10205.497283895 -37.80394 -1.3409563 -99.671082 -1.8476733 -99.727531 179.20975
-99.437141 -1.8956712 -61.951195 48.976913 -0.0086609824 0.0095370412
-99.851715 178.81763 -0.010312702 0.011521549 -63.916874 56.571198
10261.426103866 -37.797432 -1.3053931 -99.637054 -0.41403061 -99.521843 178.05786
-99.823906 -2.8095419 -61.796322 48.282963 -0.0086884554 0.0092394976
-99.553833 -178.77707 -0.010289896 0.011472879 -64.208328 57.137291
10317.661428539 -37.797596 -1.3282644 -99.762978 -3.3466389 -99.947632 175.76385
-99.923325 0.4188813 -61.863441 47.203812 -0.0084920404 0.0094646709
-99.604965 177.57515 -0.010114194 0.011122759 -64.011536 55.289864
10374.204937641 -37.792061 -1.3336562 -99.698517 -3.3344452 -99.952042 178.46434
-99.300377 -1.8783044 -61.601635 44.880592 -0.0085060624 0.0081773009
-99.850082 178.6044 -0.009819271 0.011200506 -64.157257 56.588226
10431.058320103 -37.791771 -1.3106624 -99.961754 -3.5366325 -99.957367 178.52924
-99.934219 -1.8516538 -61.748844 45.671349 -0.0083049918 0.0082256626
-99.673042 178.64935 -0.0097234016 0.010610742 -64.184525 56.086536
10488.223274114 -37.799541 -1.3059186 -99.509445 -3.5678754 -99.854462 175.21031
-100.29984 -1.7515143 -61.972206 46.577309 -0.0081599029 0.0077658733
-99.448761 177.0107 -0.0096145794 0.0098797288 -64.353233 56.019913
10545.701507168 -37.802578 -1.2848104 -99.894714 -1.007942 -100.06457 175.33311
-100.14217 -1.2284657 -62.120434 46.934265 -0.0081205396 0.006717599
-99.619965 178.21747 -0.0094435737 0.0086828442 -64.598381 54.968552
10603.494736117 -37.790802 -1.2431407 -99.616013 -3.7407393 -99.617638 177.13371
-100.15145 1.648944 -62.149895 45.057087 -0.007837099 0.0059626177
-99.53434 175.10602 -0.0092622014 0.0075255078 -64.778893 57.955357
10661.604687221 -37.797581 -1.3076036 -99.497383 -0.79481018 -99.619652 177.15627
-99.532181 -4.2173309 -62.490273 47.991486 -0.0075122113 0.0053671072
-99.847076 -179.26003 -0.009168406 0.0069753635 -64.849602 56.087971
10720.033096202 -37.804256 -1.256519 -99.683762 -0.92990893 -99.916275 176.66881
-99.924591 -4.0405941 -62.582165 48.548389 -0.0073604081 0.0038610683
-99.543472 179.26244 -0.0087761069 0.0058204769 -65.152855 56.433708
10778.781708292 -37.806095 -1.2476972 -99.962257 -0.73168314 -100.0528 176.61613
-99.523697 -4.3446546 -62.770512 48.28788 -0.0069386489 0.0025015099
-99.888138 -178.79149 -0.0083739776 0.0044618761 -65.486351 56.058586
10837.85227829 -37.79966 -1.2485377 -99.814484 -2.3403294 -99.68148 179.68201
-99.561996 -0.13373777 -62.90403 47.488209 -0.006516906 0.00075740059
-99.364975 176.05907 -0.0080128061 0.002395187 -65.70253 57.762482
10897.246570609 -37.791306 -1.2570446 -99.92762 0.031115124 -99.429077 177.62863
-99.703911 0.15098308 -63.101582 48.16198 -0.0060972478 -0.0012189472
-99.885201 175.87486 -0.0076262453 0.0011671638 -66.138046 57.053864
10956.966359335 -37.798859 -1.2294375 -99.57637 -2.2689579 -99.408569 178.53593
-99.830032 -2.326704 -63.413822 50.004166 -0.0058760215 -0.0026969519
-99.374313 179.7224 -0.0072485055 -0.00062423095 -66.267548 57.95208
11017.013428271 -37.792221 -1.2410216 -99.42482 1.972041 -100.00464 179.71506
-99.686691 -2.5223076 -63.654232 48.879585 -0.0053475862 -0.0047387672
-99.630554 174.18382 -0.0067914962 -0.003038452 -66.435791 57.740536
11077.389571002 -37.78484 -1.2490419 -99.922417 -1.3303326 -100.31665 176.56076
-99.340958 -0.66490144 -64.021461 49.394665 -0.0050517684 -0.0063076275
-99.915543 175.64819 -0.0061858054 -0.0052619241 -66.86026 60.1502
11138.096590938 -37.79578 -1.1970506 -99.478683 -1.288197 -99.659027 177.72397
-99.108627 -0.62488246 -64.524796 51.112923 -0.0046207462 -0.0083672917
-99.448135 174.32777 -0.0058510858 -0.0076749655 -67.166862 65.334351
11199.136301373 -37.802357 -1.186295 -99.802193 -1.1633979 -99.652237 178.19005
-99.516991 -2.4205616 -64.702721 52.251305 -0.0039447253 -0.010871428
-99.878517 176.71771 -0.0052645863 -0.010439589 -67.96405 64.369415
11260.510525539 -37.80022 -1.1916997 -99.507271 -0.52236563 -99.727951 178.04889
-99.814743 1.4904368 -65.028748 52.637852 -0.003388369 -0.013676776
-99.434814 176.53444 -0.0048034601 -0.013265785 -69.028687 72.763939
11322.22109666 -37.805363 -1.1655569 -99.551315 -4.0615392 -99.667496 177.29825
-100.29964 0.66703677 -65.625961 53.718739 -0.0028470575 -0.016218241
-99.378502 177.84892 -0.0041113361 -0.015768021 -69.229599 75.90062
11384.269858007 -37.802181 -1.1314876 -99.439995 -1.2030172 -99.521904 176.61574
-100.00759 -5.7892308 -66.145424 54.696072 -0.0022234232 -0.018771758
-99.771378 178.62749 -0.0033948682 -0.019072974 -69.709419 81.499046
11446.65866295 -37.787868 -1.1570363 -99.675407 -3.1421347 -99.765953 178.4203
-99.974991 0.28327015 -66.328003 55.175838 -0.001613758 -0.022011446
-99.691513 175.52847 -0.0026857441 -0.021284642 -70.534523 81.620171
11509.389375018 -37.78064 -1.1361574 -99.98317 -4.3725524 -99.398216 179.21796
-99.888702 -0.4672415 -66.008652 55.118618 -0.0022322168 -0.018969676
-99.426125 174.75615 -0.0032109998 -0.019233275 -70.018082 74.721809
11572.463867953 -37.788486 -1.1830854 -100.05555 -2.1412334 -100.03539 177.00249
-99.616814 -3.8229983 -65.662834 52.92852 -0.0026165836 -0.016592585
-100.29836 178.22986 -0.0038430216 -0.016071871 -69.269455 72.311905
11635.884025765 -37.781296 -1.2203487 -99.938797 -1.5402585 -99.927193 -179.29274
-99.853561 -3.1150284 -65.136932 51.191063 -0.0031262808 -0.014321103
-99.730103 175.97931 -0.0041041654 -0.013688338 -69.345596 65.417412
11699.651742789 -37.798878 -1.1708205 -99.767456 -3.4111617 -99.568649 176.85638
-100.2401 -2.7915542 -64.780312 49.997078 -0.0036023401 -0.011681034
-99.778 177.21378 -0.0046828114 -0.011892904 -68.931892 63.414284
11763.76892374 -37.781116 -1.2062141 -99.214127 -2.0035126 -99.709808 174.86476
-99.555534 -0.659154 -64.601425 46.463341 -0.0038960546 -0.010272187
-100.04051 178.44737 -0.005099358 -0.0095747951 -68.283974 61.240322
11828.237483773 -37.781097 -1.1677759 -100.46986 -2.8448629 -99.684998 175.61028
-99.985916 -6.3458962 -64.170525 44.55975 -0.0043363771 -0.0081096822
-99.913025 179.51025 -0.0053724092 -0.0074023069 -68.014542 61.038204
11893.059348539 -37.772961 -1.1529541 -100.06911 -2.6872146 -99.777351 175.66135
-99.60833 -1.8620515 -63.792538 43.215828 -0.0044659083 -0.0062506199
-99.749817 176.194 -0.005754753 -0.0061852583 -67.926826 57.452621
11958.236454241 -37.795921 -1.1445189 -99.53054 -1.9611036 -99.603043 178.04396
-99.539917 -3.151257 -63.40543 40.534519 -0.0047653313 -0.0047239535
-100.03231 -179.60472 -0.0060117445 -0.0040709898 -67.55378 55.455093
12023.770747692 -37.79306 -1.1028646 -99.671837 -3.8457804 -99.240692 -179.90416
-99.592155 0.0029349606 -63.440315 40.480225 -0.005120696 -0.004105763
-99.668724 175.64551 -0.0063707959 -0.0021268832 -67.012337 51.540649
12089.664186377 -37.781399 -1.1249249 -99.740341 -1.8360621 -99.444214 175.81284
-99.743446 0.28533286 -63.320141 39.570683 -0.0053657447 -0.0013752839
-99.653198 176.67336 -0.0065827058 -0.00097275921 -66.798866 51.405552
12155.918738505 -37.778713 -1.0895441 -99.831955 -4.6628432 -99.745499 177.24373
-99.907143 -3.6243567 -63.222187 41.105816 -0.0055662305 -0.00065431348
-99.768234 177.58061 -0.0069324388 0.00069199852 -66.37587 46.053082
12222.536383074 -37.778515 -1.088149 -99.175117 -2.0526624 -99.69532 179.22194
-99.429512 -0.93672329 -63.231316 40.36998 -0.0058915731 0.00010843316
-99.491501 175.89577 -0.0070588593 0.0020687811 -66.039787 44.797493
12289.519109926 -37.781898 -1.0518997 -99.563011 0.55831188 -99.77771 179.59227
-99.519066 -2.9542778 -62.724781 37.942642 -0.0060304157 0.0010435533
-99.41983 175.4433 -0.0072873528 0.003325182 -66.045372 44.665215
12356.868919809 -37.778938 -1.1093122 -99.541168 -2.3823221 -99.964218 175.35445
-99.397797 -5.5880475 -62.491028 35.05999 -0.0062174411 0.0018444883
-99.9095 -179.07697 -0.007322581 0.0040169451 -66.015678 47.152611
12424.587824435 -37.782146 -1.0304338 -99.406441 -4.661922 -99.92598 175.47415
-99.402908 -1.6397643 -62.676266 36.159096 -0.0065469439 0.0031868725
-100.0293 174.49014 -0.0074738725 0.0049549085 -66.161812 45.82069
12492.677846539 -37.779652 -1.0731268 -99.416771 -3.1505752 -99.836632 176.61313
-99.199638 -0.61695892 -62.326263 35.91246 -0.0064091203 0.0039789807
-99.380699 174.75816 -0.0075547043 0.0051352549 -65.815414 41.37812
12561.141019945 -37.782425 -1.0862862 -99.97908 -3.73792 -100.03457 179.60861
-100.02512 -0.057650346 -62.288574 35.448841 -0.006316375 0.0044911052
-99.203598 176.21332 -0.0077624852 0.0056605581 -65.243408 39.985874
12629.979389619 -37.781544 -0.96589047 -99.808708 -3.3121946 -99.785942 176.88383
-99.375366 -4.1262813 -62.174801 34.398983 -0.0065215454 0.0042898539
-99.895119 176.70827 -0.0078158379 0.0068920697 -65.3918 40.896435
12699.195011736 -37.779465 -1.0334628 -99.547989 -2.5379782 -100.43692 176.1301
-99.790939 -3.5761995 -62.154842 34.771214 -0.0066407067 0.0046880059
-99.774216 176.9278 -0.0077868206 0.0068407007 -65.512207 39.863819
12768.78995374 -37.777611 -1.0185279 -100.0059 -2.291034 -99.710289 178.04919
-99.417946 1.0922991 -61.878597 32.328213 -0.0068002818 0.0051169335
-99.793541 172.14622 -0.0078666238 0.0066957576 -65.710251 42.603352
12838.766294403 -37.775799 -1.0342797 -99.301613 -2.5789797 -99.481049 179.34204
-99.548248 -2.8620996 -61.829048 31.812092 -0.0067189415 0.0047661341
-99.620667 176.11095 -0.0080402168 0.0067814663 -65.738663 41.970104
12909.12612389 -37.786415 -0.97786611 -99.456215 0.56358242 -99.440208 175.69208
-99.583282 -1.7374512 -62.036919 32.663658 -0.0065655839 0.0043771002
-99.48671 174.84259 -0.0082252258 0.0061994502 -65.524696 40.162251
12979.871543822 -37.78046 -1.0308607 -99.48188 -3.0947783 -99.631294 178.06186
-99.526833 0.78682023 -61.958321 32.819351 -0.0066992613 0.0040244381
-100.17707 179.04178 -0.0078402096 0.0058873906 -65.437408 38.276577
13051.004667337 -37.779526 -1.0132673 -99.697533 -4.9263878 -99.636887 178.50531
-99.920898 -3.9959219 -62.016876 31.318146 -0.0065262117 0.0040168469
-99.556488 177.19627 -0.0078894477 0.0051709972 -65.257286 39.000435
13122.527619152 -37.780182 -0.99881399 -99.689545 -4.0293016 -99.638329 177.4857
-99.66053 -4.3060546 -62.110126 32.461895 -0.0064184526 0.0032827354
-99.660576 177.49686 -0.0079153664 0.0044932226 -65.186684 37.083931
13194.442535629 -37.785675 -1.0008219 -99.959564 -1.802101 -99.729149 178.95372
-99.07164 -1.9842026 -62.297935 32.400082 -0.0065174173 0.0024331643
-100.07124 174.36476 -0.0078163994 0.0037981209 -65.306435 38.605312
13266.751564838 -37.788204 -0.98126096 -99.466209 -4.3065643 -99.767838 177.55569
-99.662178 -4.398737 -62.071373 32.355331 -0.0065018767 0.0019187181
-100.22857 179.1187 -0.0076454002 0.0037827871 -65.675034 41.108028
13339.456866621 -37.781075 -1.023918 -99.944527 -4.5784373 -100.09105 177.86986
-100.27954 -5.4195428 -62.234451 32.361423 -0.00627599 0.00016199835
-99.549561 177.47339 -0.0076319422 0.0019101099 -65.841782 39.353748
13412.560612656 -37.788746 -0.9932375 -99.362518 -3.1162195 -99.817612 179.92796
-99.060455 -4.910337 -62.216103 31.039761 -0.0060428507 -0.0004518127
-100.16035 174.65718 -0.007374417 0.00082796806 -65.765106 41.283737
13486.064986524 -37.781094 -0.94467783 -99.779823 -3.8726344 -99.954666 178.75981
-100.34019 -2.8862431 -62.390472 31.839712 -0.0058682533 -0.0022699172
-99.200096 176.81505 -0.0072163804 -0.0004146884 -66.082153 41.35173
13559.972183769 -37.784054 -0.93774861 -99.553352 0.73013705 -99.746437 174.8895
-99.83931 -4.6602144 -62.599171 33.377609 -0.0057439101 -0.0032947327
-99.409554 178.07822 -0.0071386532 -0.002067704 -66.405579 42.814869
13634.284411972 -37.786232 -0.93761009 -99.54731 -2.6636651 -99.907799 175.99551
-99.891472 0.45078999 -62.568455 32.587883 -0.005560495 -0.0053035757
-99.227936 176.25 -0.0068961526 -0.003652703 -66.512512 44.148903
13709.003890807 -37.794395 -0.93892384 -99.781235 -2.8398769 -99.888008 176.68404
-99.440918 -3.3541384 -62.412163 32.051376 -0.005280212 -0.0066840048
-100.12897 176.10493 -0.0065339631 -0.0055872551 -66.866707 44.748348
13784.132852117 -37.780128 -0.9351849 -99.339523 -4.4724398 -100.26128 176.91386
-99.504295 -2.4177639 -62.708946 32.696995 -0.0050211577 -0.0087126931
-100.15526 178.50389 -0.0064655365 -0.007673935 -66.951759 45.10276
13859.673539974 -37.787861 -0.96526027 -99.479492 -1.405539 -99.594841 178.74635
-100.16929 -5.6852894 -62.673111 33.002899 -0.0049667079 -0.010947972
-99.359207 178.32182 -0.0060520638 -0.0092348298 -67.642509 50.35606
13935.628210747 -37.782852 -0.95431477 -100.04015 -5.7506547 -100.62017 177.61057
-99.606491 -0.6823644 -63.03529 34.746593 -0.0045952369 -0.012897589
-100.18867 174.16273 -0.0056950492 -0.011585329 -67.58876 49.655308
14011.999133173 -37.790619 -0.95287758 -99.67939 -3.4390631 -99.76445 176.12605
-100.06248 -3.2644739 -63.092705 35.741333 -0.0042268643 -0.01523774
-99.348679 177.60968 -0.0052452954 -0.014219882 -67.514359 46.982826
14088.78858842 -37.787746 -0.92203885 -99.76664 -1.1314307 -100.04734 179.01794
-99.959274 -2.3042457 -63.324669 35.185875 -0.0039490848 -0.018621301
-99.213623 179.88504 -0.0048390417 -0.017252229 -68.175598 52.814392
14165.998870159 -37.794418 -0.9187085 -99.518822 -4.0629797 -99.915367 179.52722
-99.530151 -3.3824029 -63.554573 37.582592 -0.0035775974 -0.020945003
-99.699196 175.97198 -0.0046223626 -0.020354457 -68.528877 51.936611
14243.632284629 -37.7827 -0.95768195 -99.600243 -2.2646236 -99.598885 177.63477
-99.624489 -5.3181319 -63.903187 37.539677 -0.0032226576 -0.023705775
-99.571014 173.99042 -0.0045279032 -0.023537414 -68.858467 59.602894
14321.691150711 -37.779835 -0.95376003 -99.903717 -4.4660387 -99.327202 176.10963
-99.746834 -3.152348 -63.619694 38.893394 -0.0028076058 -0.026909634
-99.740135 178.99496 -0.003993676 -0.026508538 -69.282585 60.052029
14400.177799991 -37.781109 -0.88667083 -99.708656 -3.2991426 -99.506645 176.7525
-99.751488 -0.95661825 -64.291519 41.897526 -0.0023770169 -0.030038552
-100.08207 175.70633 -0.0034894724 -0.029803865 -69.104378 60.049522
14479.094576835 -37.788719 -0.87427819 -99.759766 -2.5178487 -99.573021 177.73236
-99.284233 -5.722919 -63.810329 38.67984 -0.0025947262 -0.027339432
-99.931755 179.79288 -0.003813403 -0.026870606 -68.977417 56.049339
14558.443838454 -37.788105 -0.84702188 -99.833839 -4.693727 -99.881516 176.04279
-99.966873 -7.0489469 -63.82291 37.271271 -0.0029915865 -0.025036603
-99.497261 179.79578 -0.0039948509 -0.024448022 -68.605713 51.997894
14638.227954979 -37.80217 -0.8790406 -99.571304 -2.3829792 -99.550087 175.80774
