!Keysight Technologies,E5080A,MY55201161,A.12.60.03
!Date: Thursday, December 19, 2019 20:41:26
!Correction: S11(Full 3 Port(1,2,3)) 
!S12(Full 3 Port(1,2,3)) 
!S13(Full 3 Port(1,2,3)) 
!S21(Full 3 Port(1,2,3)) 
!S22(Full 3 Port(1,2,3)) 
!S23(Full 3 Port(1,2,3)) 
!S31(Full 3 Port(1,2,3)) 
!S32(Full 3 Port(1,2,3)) 
!S33(Full 3 Port(1,2,3)) 
!S3P File: Measurements: <S11,S12,S13>,
!<S21,S22,S23>,
!<S31,S32,S33>:Log Frequency Sweep
# Hz S  dB   R 50
9000 -37.79879 -1.5718242 -94.564789 13.078943 -110.93031 -167.97006
-94.261528 12.677655 -0.01784911 179.87796 -56.827412 98.586182
-111.40781 -171.6161 -56.837601 98.980858 -0.0047345953 179.80272
9049.3223765327 -37.797806 -1.6033897 -94.157097 14.61814 -109.93589 -171.88033
-94.200363 10.694848 -0.017805513 179.8779 -56.77821 98.550323
-110.92916 -168.51855 -56.787052 98.958878 -0.0047656596 179.80171
9098.9150527129 -37.797844 -1.5147208 -94.529465 13.382892 -109.91796 -165.39653
-94.341042 12.648577 -0.017885637 179.87703 -56.729584 98.484665
-112.64948 -171.53378 -56.73912 98.874496 -0.0048040021 179.80075
9148.7795098539 -37.795269 -1.52976 -94.271194 14.242766 -111.87993 177.06081
-94.401108 11.242277 -0.017797224 179.87634 -56.683346 98.428322
-110.85757 -163.10686 -56.692165 98.795692 -0.0048360173 179.79958
9198.9172373873 -37.798843 -1.517132 -94.458687 12.063784 -111.01138 -159.99313
-94.355461 12.338719 -0.01782931 179.87611 -56.631527 98.367538
-111.22548 -161.8414 -56.645321 98.735062 -0.00484156 179.79829
9249.3297329068 -37.788689 -1.5052058 -94.521812 13.601412 -110.61783 -170.25816
-94.446999 12.742707 -0.017836496 179.87585 -56.581768 98.310852
-110.97859 -159.43947 -56.593842 98.684296 -0.0048183626 179.79755
9300.0185022137 -37.79435 -1.4450208 -94.317192 13.288991 -110.46894 -172.49089
-94.460258 11.332742 -0.017863242 179.87517 -56.540417 98.257126
-111.59358 -175.07207 -56.547752 98.613342 -0.0047933171 179.79625
9350.9850593612 -37.789021 -1.4877459 -94.630707 11.364579 -110.54851 -173.761
-94.361595 11.961982 -0.017818442 179.8746 -56.48951 98.212318
-111.67571 -164.87831 -56.497932 98.549377 -0.0048164204 179.79491
9402.2309267001 -37.7887 -1.4531931 -94.423317 13.722594 -113.44167 -158.36336
-94.477211 10.781288 -0.017861405 179.87431 -56.442028 98.147881
-110.90807 -165.94202 -56.453083 98.498108 -0.0048486707 179.7942
9453.7576349239 -37.789993 -1.4042889 -94.337654 12.346489 -109.66024 -168.43736
-94.3825 12.515966 -0.017920336 179.87369 -56.389202 98.097954
-111.14388 -164.44775 -56.400608 98.434669 -0.0048445053 179.79321
9505.5667231149 -37.788231 -1.449635 -94.743454 11.494978 -109.16527 -169.12039
-94.420937 11.15841 -0.017853282 179.87329 -56.345642 98.032417
-111.56561 -177.49724 -56.355263 98.387634 -0.0048203245 179.79161
9557.6597387899 -37.786839 -1.4001319 -94.245132 10.407456 -110.81911 -175.58389
-94.464066 11.182981 -0.017940378 179.87312 -56.296101 97.997429
-111.12373 -169.66956 -56.31007 98.347481 -0.0047546993 179.79097
9610.0382379464 -37.784622 -1.4489065 -94.169716 12.945333 -110.76487 -174.83087
-94.262642 10.130988 -0.017936628 179.87277 -56.248005 97.938477
-111.60925 -168.97089 -56.257351 98.287468 -0.0048013767 179.78922
9662.7037851093 -37.79332 -1.4698315 -94.311134 14.010546 -112.96551 -168.44023
-94.282967 11.275012 -0.017905153 179.87173 -56.19902 97.887672
-111.43846 -172.99243 -56.212055 98.215584 -0.0048973742 179.78859
9715.6579533774 -37.782219 -1.397034 -94.510368 12.532347 -112.23579 -169.96881
-94.409172 12.005338 -0.01800096 179.87125 -56.149246 97.80484
-112.03556 -169.82272 -56.160519 98.179253 -0.0049257106 179.78738
9768.9023244707 -37.768829 -1.4034172 -94.695961 12.636126 -111.50618 -158.20419
-94.37355 11.181977 -0.018028885 179.87097 -56.101421 97.765633
-110.90389 -169.93379 -56.111664 98.096603 -0.0049359235 179.78621
9822.4384887773 -37.783234 -1.3693392 -94.532585 10.868217 -112.06105 -167.25179
-94.276604 11.514206 -0.017973259 179.87064 -56.054276 97.708412
-111.3468 -167.00473 -56.061954 98.060349 -0.004874215 179.78519
9876.268045401 -37.779903 -1.3902919 -94.620323 13.706285 -111.69014 174.32997
-94.635139 11.826207 -0.017940184 179.86949 -56.006062 97.657242
-111.04375 -175.39816 -56.017559 98.006561 -0.0049522081 179.78387
9930.3926022092 -37.781811 -1.3717681 -94.181183 13.149536 -112.40921 -173.96124
-94.35144 13.203258 -0.017956752 179.8694 -55.954685 97.593925
-111.78394 -174.37688 -55.967361 97.944016 -0.0049255593 179.78256
9984.8137758807 -37.772308 -1.3606089 -94.482315 13.660186 -110.82957 -175.58368
-94.088776 11.602999 -0.018007366 179.86874 -55.910099 97.554657
-110.93826 -170.38541 -55.921528 97.877022 -0.0048547434 179.78194
10039.533191954 -37.762882 -1.3480616 -94.51088 13.51442 -109.80183 -171.7466
-94.397964 12.777043 -0.018007286 179.86852 -55.856022 97.48362
-111.27104 -166.11899 -55.870243 97.839455 -0.0049285446 179.78056
10094.552484877 -37.766739 -1.3172264 -94.165184 13.622004 -110.33546 -167.15585
-94.284264 12.43169 -0.018042475 179.86827 -55.811069 97.446213
-110.01077 -178.12244 -55.824253 97.779076 -0.0049527986 179.77951
10149.873298054 -37.770695 -1.3740275 -94.091942 11.90183 -112.76369 -176.51154
-94.701759 12.651482 -0.018034827 179.86716 -55.765629 97.389435
-110.45115 -163.47063 -55.774487 97.735123 -0.0050125965 179.77812
10205.497283895 -37.780048 -1.3135473 -94.315849 11.030705 -111.88139 -159.25826
-94.424187 11.926077 -0.018074119 179.86678 -55.715672 97.331902
-110.74425 -162.04391 -55.723713 97.681335 -0.0050132149 179.77654
10261.426103866 -37.775604 -1.316695 -94.442467 10.839981 -111.69599 -173.86021
-94.602371 11.107963 -0.018051768 179.86665 -55.663342 97.281662
-111.14695 -177.71825 -55.675106 97.620148 -0.0049915062 179.77574
10317.661428539 -37.781284 -1.2560545 -94.402504 13.04235 -110.73136 -165.29773
-94.227524 11.587947 -0.018038157 179.86632 -55.618729 97.216469
-110.09688 -163.40147 -55.629215 97.548767 -0.00490369 179.77441
10374.204937641 -37.768639 -1.2992874 -94.160721 10.742145 -112.43674 -167.13692
-94.493599 10.947118 -0.018077778 179.86539 -55.569057 97.171707
-111.49136 176.01248 -55.5802 97.506546 -0.0050100177 179.77292
10431.058320103 -37.772953 -1.2473264 -94.176697 10.067138 -111.6639 -178.07103
-94.398529 11.360848 -0.018108338 179.86525 -55.523502 97.114853
-111.6892 -175.53482 -55.527039 97.454285 -0.0050248941 179.7718
10488.223274114 -37.769878 -1.2791792 -94.380661 10.32482 -110.80782 -174.62721
-94.290543 12.811794 -0.018099228 179.86444 -55.475033 97.051926
-111.89864 -165.58206 -55.481918 97.398689 -0.0049943165 179.77094
10545.701507168 -37.777267 -1.2581782 -94.261696 13.873317 -109.6434 -167.81877
-94.185829 12.895716 -0.018183632 179.86398 -55.424854 97.001976
-112.5528 179.39705 -55.431149 97.342804 -0.0050476631 179.76921
10603.494736117 -37.772808 -1.2128526 -94.290939 12.060924 -110.94412 -162.66859
-94.20916 12.035465 -0.018158406 179.86308 -55.375099 96.966042
-110.93539 -176.99026 -55.38483 97.271553 -0.0050082412 179.76828
10661.604687221 -37.780979 -1.2386347 -94.50296 11.76844 -111.97841 172.02551
-94.29081 10.706235 -0.018222062 179.86267 -55.324528 96.907928
-112.0584 -169.61374 -55.335861 97.231209 -0.0050349901 179.76712
10720.033096202 -37.780838 -1.2416462 -94.166138 10.206812 -114.44521 -178.55917
-94.332909 10.563518 -0.018126462 179.86227 -55.278442 96.826935
-111.2534 -176.70355 -55.28513 97.160858 -0.0050403052 179.76567
10778.781708292 -37.775795 -1.2346994 -94.354736 13.044936 -110.44267 -167.60951
-94.370148 11.015798 -0.018147036 179.86179 -55.227966 96.787537
-111.64126 -170.87865 -55.238205 97.115295 -0.0050721481 179.76439
10837.85227829 -37.783054 -1.2494559 -94.34639 10.444181 -110.97384 -175.40186
-94.235649 11.57153 -0.018161725 179.86082 -55.180958 96.735481
-112.00282 -174.517 -55.189518 97.040131 -0.0050475695 179.7632
10897.246570609 -37.770756 -1.2138311 -94.071747 12.224866 -112.84808 -169.79706
-94.255196 10.664124 -0.018225487 179.86069 -55.131474 96.688095
-111.79456 -169.57622 -55.139572 96.996597 -0.0050326148 179.76166
10956.966359335 -37.779713 -1.1615541 -94.253365 10.936065 -110.25951 -172.32764
-94.07412 10.802587 -0.018210255 179.86017 -55.084679 96.635376
-111.4224 -173.61987 -55.090321 96.953568 -0.0051211612 179.76079
11017.013428271 -37.77742 -1.1697541 -94.429092 11.742843 -110.44199 -178.12599
-94.158058 11.614915 -0.018290708 179.85889 -55.034145 96.560707
-111.36798 -174.03854 -55.038845 96.876785 -0.0050633112 179.75941
11077.389571002 -37.770473 -1.190129 -94.313354 9.8481989 -110.83489 176.66139
-94.169312 12.248352 -0.018207751 179.85902 -54.986927 96.514221
-113.5575 -168.60443 -54.992329 96.826881 -0.0051381472 179.75816
11138.096590938 -37.774963 -1.1905088 -94.360703 10.450406 -110.19807 -172.23228
-94.23333 11.660107 -0.018236915 179.85793 -54.93718 96.46817
-112.7294 -173.98602 -54.94363 96.76577 -0.0051352023 179.75681
11199.136301373 -37.786415 -1.1726835 -94.266609 10.859035 -112.2329 -170.73811
-94.307869 11.805463 -0.018289747 179.8577 -54.891151 96.40168
-111.68791 -169.99728 -54.895393 96.71698 -0.0051821438 179.7549
11260.510525539 -37.776661 -1.1297619 -94.161858 9.9107256 -111.06605 -157.82225
-94.284203 10.731771 -0.018205564 179.85735 -54.8396 96.354439
-112.36302 -160.87268 -54.84882 96.668304 -0.0051056263 179.75354
11322.22109666 -37.776585 -1.1536958 -94.334381 13.017852 -109.48886 -168.40791
-94.164703 11.611006 -0.018253917 179.85625 -54.78978 96.293678
-111.32223 -168.46155 -54.796963 96.601433 -0.0051560192 179.75296
11384.269858007 -37.775703 -1.1210523 -94.209328 11.909881 -110.64528 -161.56229
-94.168526 12.055357 -0.018292008 179.85545 -54.741234 96.235367
-112.07125 -170.03116 -54.74892 96.55925 -0.0051597334 179.75151
11446.65866295 -37.771133 -1.172966 -94.404449 10.516144 -109.29622 -170.08769
-94.028679 10.893126 -0.018316306 179.85524 -54.691223 96.207741
-111.27998 -177.38013 -54.702667 96.504005 -0.0051775579 179.75027
11509.389375018 -37.764305 -1.1610723 -94.444855 11.497737 -110.12564 -173.52873
-94.29055 11.433503 -0.018293124 179.85431 -54.645027 96.140648
-113.3476 -159.04726 -54.652813 96.465828 -0.0051698582 179.74881
11572.463867953 -37.775284 -1.1082184 -94.307892 10.987694 -112.22109 -176.78319
-94.231743 11.520387 -0.018356798 179.85394 -54.595581 96.120537
-109.99098 -172.85306 -54.602386 96.396652 -0.005171557 179.74747
11635.884025765 -37.774502 -1.1409531 -93.996185 12.624314 -109.11745 -167.28142
-94.287193 10.808632 -0.018394634 179.85384 -54.549908 96.045532
-110.49622 -169.82617 -54.557507 96.359116 -0.005186765 179.7462
11699.651742789 -37.778732 -1.1383281 -94.213585 11.080963 -110.54382 -178.22046
-94.209404 10.909758 -0.01834923 179.85316 -54.500301 96.001999
-112.00026 -166.81259 -54.51054 96.323715 -0.0051940028 179.74464
11763.76892374 -37.766464 -1.1618786 -94.507645 10.454194 -110.49167 -178.15994
-94.091614 9.4541798 -0.018400807 179.85239 -54.452766 95.963539
-112.65999 -176.75334 -54.45932 96.252068 -0.0052563213 179.74335
11828.237483773 -37.769592 -1.1084131 -94.415092 11.530128 -111.59761 -178.41518
-94.064964 10.907003 -0.018327912 179.85172 -54.406254 95.930695
-112.19982 -171.04233 -54.412373 96.204384 -0.0052572964 179.74173
11893.059348539 -37.773808 -1.1155504 -94.297325 10.601018 -109.87743 -173.70143
-94.209984 11.052209 -0.018356636 179.85088 -54.358124 95.877525
-111.34595 -172.04875 -54.364159 96.173912 -0.0052452832 179.74083
11958.236454241 -37.7873 -1.0606604 -94.233223 11.443268 -111.53594 -172.72386
-94.283752 11.620465 -0.018369354 179.85023 -54.309799 95.814392
-110.64793 174.94432 -54.316833 96.117065 -0.0052640135 179.73944
12023.770747692 -37.782837 -1.104838 -94.110924 11.022755 -110.80781 -168.98463
-94.369713 11.505547 -0.018416885 179.84973 -54.260601 95.777023
-111.22609 -176.40997 -54.269661 96.080986 -0.0053107562 179.73737
12089.664186377 -37.76445 -1.0496228 -94.185463 9.6756191 -111.33675 -165.09442
-94.374252 10.118885 -0.018340027 179.84955 -54.215843 95.724869
-111.88473 -171.45665 -54.219646 96.015007 -0.0053275032 179.73611
12155.918738505 -37.759872 -1.0227768 -94.162346 11.808925 -111.15376 -171.76372
-94.255814 11.151656 -0.018451696 179.84856 -54.167934 95.668114
-109.87865 -169.34729 -54.171078 95.968719 -0.0053172046 179.73474
12222.536383074 -37.764599 -1.0711087 -94.36734 10.583723 -111.38106 176.20193
-94.339973 10.737947 -0.018458109 179.84772 -54.119102 95.627083
-111.90978 -170.61893 -54.12553 95.936493 -0.0052654268 179.73331
12289.519109926 -37.771366 -1.0550117 -94.472275 8.4299259 -113.56905 -172.40132
-94.256783 11.478353 -0.018432278 179.84671 -54.069546 95.562538
-110.86432 -157.82254 -54.075859 95.883652 -0.0053346292 179.73152
12356.868919809 -37.775589 -1.0223844 -94.301994 10.357256 -111.52239 -170.14217
-94.205399 11.75196 -0.018470014 179.84639 -54.023048 95.526863
-111.29166 -170.60982 -54.029354 95.826714 -0.0053271102 179.73042
12424.587824435 -37.771011 -1.0398207 -94.071663 8.7042589 -110.23508 -172.07797
-94.102364 10.388476 -0.018513357 179.84579 -53.975342 95.497009
-110.54829 -169.2666 -53.982464 95.762375 -0.0053083682 179.72885
12492.677846539 -37.765656 -1.049637 -94.10276 10.257952 -111.19236 -179.88472
-94.300095 10.364705 -0.018461907 179.84558 -53.92593 95.449142
-110.26466 -175.09978 -53.931259 95.708519 -0.0053597358 179.72752
12561.141019945 -37.759003 -1.0464576 -94.11335 9.4192238 -113.18576 -172.46135
-93.860619 11.16246 -0.018492509 179.8443 -53.87817 95.395454
-110.07128 -174.11674 -53.885876 95.694183 -0.0054292921 179.72629
12629.979389619 -37.771023 -0.98467541 -94.244209 8.7980995 -110.95114 -161.19035
-94.15963 10.934707 -0.018456459 179.84369 -53.831772 95.359566
-111.01731 179.34488 -53.836945 95.628891 -0.0054102559 179.72504
12699.195011736 -37.769012 -1.0074006 -94.065262 10.660138 -111.07809 179.14432
-94.356361 10.152412 -0.018461863 179.84296 -53.783783 95.303223
-112.02873 -161.10233 -53.790749 95.581596 -0.0053618392 179.72328
12768.78995374 -37.762367 -1.0322753 -93.698402 10.550691 -110.66417 179.89345
-94.341682 10.609361 -0.018519821 179.84261 -53.736835 95.259186
-111.74647 -151.0609 -53.741554 95.554016 -0.0054406272 179.72194
12838.766294403 -37.768436 -0.99086112 -94.01638 11.205395 -109.71632 -176.83237
-94.26078 11.43649 -0.018522186 179.84204 -53.686848 95.211594
-111.55273 -163.3934 -53.692802 95.487488 -0.0054369345 179.72044
12909.12612389 -37.771992 -0.92491287 -94.147301 8.1844473 -110.4656 -179.4668
-94.410461 9.5795355 -0.018563151 179.84076 -53.638004 95.171715
-109.9352 -174.53378 -53.646217 95.448318 -0.0054405942 179.7184
12979.871543822 -37.761265 -0.96074009 -94.300629 10.436668 -110.86817 -166.30841
-94.399284 9.9709425 -0.018518511 179.84071 -53.58987 95.124397
-111.02871 -167.23009 -53.596844 95.410835 -0.0054651201 179.71724
13051.004667337 -37.766773 -0.97027469 -94.215652 8.5018387 -111.75514 -167.24994
-94.035858 11.777336 -0.018532693 179.83989 -53.545879 95.072227
-110.51868 -166.42902 -53.547218 95.342499 -0.0055323509 179.71571
13122.527619152 -37.764606 -0.93948674 -94.095139 10.758895 -109.97792 -173.72412
-94.197464 11.058661 -0.01856301 179.8392 -53.49382 95.023438
-111.81348 -174.92723 -53.501831 95.288086 -0.0055498546 179.71419
13194.442535629 -37.768509 -0.98510313 -94.080017 9.348609 -112.17025 -168.47351
-94.370735 9.8245831 -0.01856878 179.83813 -53.447929 94.975899
-111.42997 -166.929 -53.456181 95.248535 -0.0054887091 179.7128
13266.751564838 -37.767933 -0.92690665 -94.123718 9.3956776 -110.83253 -176.73485
-94.283051 11.190183 -0.018628912 179.83801 -53.400345 94.922379
-110.61015 -173.95679 -53.404972 95.200897 -0.0055176695 179.71138
13339.456866621 -37.765327 -0.95798314 -94.559143 10.923188 -110.65331 -177.33159
-94.201813 11.227635 -0.018636618 179.83662 -53.349297 94.88623
-109.14744 -169.00563 -53.355724 95.150795 -0.0054839374 179.70927
13412.560612656 -37.773117 -0.91046596 -94.212753 9.6218357 -111.27898 -174.50229
-94.315445 10.322596 -0.018489845 179.83556 -53.302059 94.84166
-112.1097 -173.17363 -53.310741 95.094536 -0.005533732 179.70801
13486.064986524 -37.764156 -0.93086964 -94.021805 10.570462 -111.59783 -168.21376
-93.975304 9.7120676 -0.018609768 179.83572 -53.256718 94.786743
-109.89734 -168.45132 -53.259266 95.042252 -0.0055845235 179.70602
13559.972183769 -37.768208 -0.9060756 -93.948746 9.973527 -110.53873 178.42957
-94.120537 11.983438 -0.018625509 179.83493 -53.206245 94.743813
-111.41782 -171.21265 -53.208778 94.991219 -0.005593732 179.70454
13634.284411972 -37.77346 -0.90331376 -94.077553 9.1201735 -110.0894 -173.60846
-94.223213 11.004896 -0.018621909 179.83383 -53.160358 94.700882
-111.37393 -171.14517 -53.163689 94.945351 -0.0055901357 179.70326
13709.003890807 -37.770939 -0.91308266 -94.036102 10.032978 -111.92545 -176.547
-94.277779 11.314077 -0.018625822 179.83328 -53.1105 94.652702
-110.16784 -173.28101 -53.11718 94.909233 -0.0056549883 179.70142
13784.132852117 -37.751209 -0.89041394 -94.176071 8.5288782 -111.87238 -172.89809
-94.108673 10.915937 -0.018626133 179.83282 -53.063244 94.615677
-111.85415 -179.41249 -53.066883 94.857056 -0.0056698942 179.69995
13859.673539974 -37.766037 -0.9303928 -94.245613 9.2354097 -110.44929 -169.67113
-94.201385 9.6003275 -0.018594583 179.83188 -53.016346 94.565964
-109.86003 -170.33527 -53.018257 94.808174 -0.0056438698 179.6985
13935.628210747 -37.768688 -0.88840568 -94.278343 9.1020088 -108.9269 -175.98209
-94.11187 10.073747 -0.018681588 179.83151 -52.967369 94.509964
-109.29225 179.61244 -52.971142 94.750763 -0.0056798165 179.69681
14011.999133173 -37.767025 -0.91312563 -94.157677 9.730216 -110.29831 -178.18935
-94.288254 9.9380045 -0.018679095 179.83058 -52.918251 94.467857
-110.17495 -174.67935 -52.921356 94.715683 -0.0057090027 179.6951
14088.78858842 -37.762173 -0.85936022 -94.172333 11.152261 -108.55412 -167.32896
-94.32901 10.169734 -0.018648969 179.82935 -52.870045 94.435928
-110.93034 -166.64392 -52.87434 94.664795 -0.0056552361 179.69331
14165.998870159 -37.757282 -0.84996605 -93.978729 8.1099558 -111.00999 -179.93359
-94.047485 10.545216 -0.018692775 179.82869 -52.823158 94.371521
-112.49132 -170.49893 -52.827942 94.620369 -0.0056751738 179.69171
14243.632284629 -37.769836 -0.8730725 -94.034576 8.1262522 -111.32512 -174.75687
-94.225792 10.023473 -0.018769722 179.8279 -52.771809 94.326431
-109.73709 -168.74002 -52.778458 94.58374 -0.0057309447 179.69022
14321.691150711 -37.760021 -0.88658357 -94.01622 8.2666302 -110.38888 178.10449
-94.163666 10.680922 -0.018747194 179.82742 -52.725739 94.277626
-110.41006 -178.17505 -52.731537 94.53125 -0.0057753874 179.6882
14400.177799991 -37.762817 -0.84320343 -94.130844 8.0444546 -111.87413 -166.9306
-94.275276 10.633315 -0.018759612 179.82622 -52.676254 94.228371
-112.31924 178.33012 -52.679382 94.468163 -0.0057562422 179.68697
14479.094576835 -37.773769 -0.80858296 -94.068336 11.432867 -109.52367 -173.12903
-94.155441 10.312285 -0.018768812 179.82591 -52.63036 94.19342
-111.83969 -167.94226 -52.636196 94.431007 -0.005796331 179.68533
14558.443838454 -37.772594 -0.80876184 -94.270889 8.1212378 -111.37753 178.17899
-93.987175 9.1947718 -0.018699307 179.82484 -52.58223 94.151154
-110.60765 -168.26434 -52.588604 94.382095 -0.0058274451 179.6835
14638.227954979 -37.777611 -0.84023678 -94.372643 9.2727728 -112.14197 -168.65202
-94.294167 8.8288498 -0.018778864 179.8241 -52.534657 94.116318
-110.32401 -177.4167 -52.540161 94.355469 -0.0058310176 179.68159
14718.449309531 -37.770615 -0.81855774 -94.11113 9.6281815 -111.64135 -176.51512
-94.323647 10.512715 -0.018818883 179.82314 -52.486275 94.075935
-111.93864 -166.13452 -52.49239 94.307892 -0.0058238995 179.67992
14799.110298289 -37.767502 -0.82202971 -93.963066 7.9176764 -112.47798 -162.44435
-94.208359 10.40766 -0.018758539 179.82278 -52.44059 94.028984
-111.37903 -163.11494 -52.445148 94.272423 -0.005841271 179.67842
14880.213330565 -37.779491 -0.81809902 -94.191971 8.4298468 -112.61627 -173.8745
